time	V(g1)	V(n002)
0.000000000000000e+000	-5.828188e-014	-1.549486e-002
1.136459180095528e-006	2.133092e-003	-3.839558e-002
3.409377540286585e-006	6.311012e-003	-8.337318e-002
7.409377540401607e-006	1.325574e-002	-1.581652e-001
1.140937754051663e-005	1.940127e-002	-2.239273e-001
1.540937754063165e-005	2.432775e-002	-2.755295e-001
1.940937754074668e-005	2.789465e-002	-3.110976e-001
2.190713218164220e-005	2.931165e-002	-3.236978e-001
2.361963244057463e-005	2.978025e-002	-3.263750e-001
2.573866799338020e-005	2.984476e-002	-3.236218e-001
2.770262017603997e-005	2.938694e-002	-3.150854e-001
3.089257727229011e-005	2.761886e-002	-2.896611e-001
3.489257727240513e-005	2.400586e-002	-2.426580e-001
3.889257727252016e-005	1.897547e-002	-1.812193e-001
4.289257727263518e-005	1.275278e-002	-1.088555e-001
4.689257727275020e-005	5.728784e-003	-3.065502e-002
5.089257727286523e-005	-1.655172e-003	4.817379e-002
5.489257727298025e-005	-8.935126e-003	1.227059e-001
5.889257727309527e-005	-1.565365e-002	1.886049e-001
6.289257727321029e-005	-2.138861e-002	2.423104e-001
6.689257727332532e-005	-2.577963e-002	2.811193e-001
7.089257727344034e-005	-2.883010e-002	3.059080e-001
7.246007245065300e-005	-2.953424e-002	3.106906e-001
7.430507054762003e-005	-2.986583e-002	3.114600e-001
7.624156887064970e-005	-2.977874e-002	3.080890e-001
7.852087861337509e-005	-2.902810e-002	2.979045e-001
8.221511163242212e-005	-2.657950e-002	2.695351e-001
8.621511163253715e-005	-2.249582e-002	2.248169e-001
9.021511163265217e-005	-1.703210e-002	1.662766e-001
9.421511163276719e-005	-1.049819e-002	9.661920e-002
9.821511163288221e-005	-3.304648e-003	1.974194e-002
1.022151116329972e-004	4.096542e-003	-5.972098e-002
1.062151116331123e-004	1.124033e-002	-1.366354e-001
1.102151116332273e-004	1.767785e-002	-2.057243e-001
1.142151116333423e-004	2.300460e-002	-2.620101e-001
1.182151116334573e-004	2.696955e-002	-3.022845e-001
1.214559930766690e-004	2.911079e-002	-3.222209e-001
1.230592877941028e-004	2.970526e-002	-3.265699e-001
1.245884746849946e-004	2.991044e-002	-3.264397e-001
1.263470148549217e-004	2.977124e-002	-3.219056e-001
1.286923591830025e-004	2.894228e-002	-3.084924e-001
1.324915814682193e-004	2.633923e-002	-2.727425e-001
1.364915814683343e-004	2.216017e-002	-2.198465e-001
1.404915814684493e-004	1.661053e-002	-1.534515e-001
1.444915814685643e-004	1.001720e-002	-7.812343e-002
1.484915814686794e-004	2.794450e-003	9.497484e-004
1.524915814687944e-004	-4.603886e-003	7.863075e-002
1.564915814689094e-004	-1.171294e-002	1.501975e-001
1.604915814690244e-004	-1.808603e-002	2.116065e-001
1.644915814691395e-004	-2.332271e-002	2.596363e-001
1.684915814692545e-004	-2.719701e-002	2.929491e-001
1.715611502968173e-004	-2.915912e-002	3.081327e-001
1.731899961128214e-004	-2.972814e-002	3.115030e-001
1.748206855149981e-004	-2.992030e-002	3.112126e-001
1.764333497451531e-004	-2.976465e-002	3.076062e-001
1.788327330123352e-004	-2.886932e-002	2.958772e-001
1.827177012816428e-004	-2.613692e-002	2.645203e-001
1.867177012817578e-004	-2.188067e-002	2.180936e-001
1.907177012818728e-004	-1.626201e-002	1.579707e-001
1.947177012819878e-004	-9.621550e-003	8.717482e-002
1.987177012821029e-004	-2.376535e-003	9.704836e-003
2.027177012822179e-004	5.017808e-003	-6.972682e-002
2.067177012823329e-004	1.209686e-002	-1.459461e-001
2.107177012824479e-004	1.841583e-002	-2.136879e-001
2.147177012825630e-004	2.357766e-002	-2.680458e-001
2.187177012826780e-004	2.737713e-002	-3.063629e-001
2.216468021107865e-004	2.919782e-002	-3.230210e-001
2.232964154562644e-004	2.975524e-002	-3.268511e-001
2.248025173461343e-004	2.992533e-002	-3.263444e-001
2.264265961731127e-004	2.976518e-002	-3.217891e-001
2.288217531618564e-004	2.887511e-002	-3.075952e-001
2.327000210984309e-004	2.615293e-002	-2.703919e-001
2.367000210985459e-004	2.190268e-002	-2.167652e-001
2.407000210986610e-004	1.628938e-002	-1.497780e-001
2.447000210987760e-004	9.652557e-003	-7.412098e-002
2.487000210988910e-004	2.409230e-003	5.008523e-003
2.527000210990060e-004	-4.985479e-003	8.248442e-002
2.567000210991211e-004	-1.206693e-002	1.536168e-001
2.607000210992361e-004	-1.839017e-002	2.144033e-001
2.647000210993511e-004	-2.355789e-002	2.616661e-001
2.687000210994661e-004	-2.736324e-002	2.942565e-001
2.716401158058268e-004	-2.919482e-002	3.083203e-001
2.732881093634454e-004	-2.975379e-002	3.115659e-001
2.747912766594141e-004	-2.992489e-002	3.112404e-001
2.764224176430297e-004	-2.976551e-002	3.075743e-001
2.788149596932854e-004	-2.887869e-002	2.959366e-001
2.826890814238148e-004	-2.616281e-002	2.647539e-001
2.866890814239298e-004	-2.191629e-002	2.184239e-001
2.906890814240448e-004	-1.630631e-002	1.583898e-001
2.946890814241598e-004	-9.671737e-003	8.765704e-002
2.986890814242749e-004	-2.429458e-003	1.021871e-002
3.026890814243899e-004	4.965472e-003	-6.921699e-002
3.066890814245049e-004	1.204840e-002	-1.454780e-001
3.106890814246199e-004	1.837429e-002	-2.132983e-001
3.146890814247350e-004	2.354565e-002	-2.677673e-001
3.186890814248500e-004	2.735463e-002	-3.061961e-001
3.216359777424849e-004	2.919296e-002	-3.230328e-001
3.232829687167538e-004	2.975251e-002	-3.268920e-001
3.247918727846688e-004	2.992464e-002	-3.264044e-001
3.264226392438729e-004	2.976549e-002	-3.218490e-001
3.288153199743071e-004	2.887850e-002	-3.076934e-001
3.326896616031583e-004	2.616229e-002	-2.705612e-001
3.366896616032733e-004	2.191557e-002	-2.169687e-001
3.406896616033883e-004	1.630541e-002	-1.500086e-001
3.446896616035033e-004	9.670720e-003	-7.436557e-002
3.486896616036184e-004	2.428385e-003	4.763531e-003
3.526896616037334e-004	-4.966533e-003	8.225180e-002
3.566896616038484e-004	-1.204939e-002	1.534078e-001
3.606896616039634e-004	-1.837513e-002	2.142270e-001
3.646896616040785e-004	-2.354630e-002	2.615294e-001
3.686896616041935e-004	-2.735508e-002	2.941570e-001
3.716361972196935e-004	-2.919306e-002	3.082762e-001
3.732832413714249e-004	-2.975258e-002	3.115289e-001
3.747918411654005e-004	-2.992465e-002	3.112059e-001
3.764226274896032e-004	-2.976549e-002	3.075425e-001
3.788153008636996e-004	-2.887851e-002	2.959033e-001
3.826896308285477e-004	-2.616232e-002	2.647175e-001
3.866896308286627e-004	-2.191560e-002	2.183858e-001
3.906896308287777e-004	-1.630545e-002	1.583501e-001
3.946896308288928e-004	-9.670774e-003	8.761607e-002
3.986896308290078e-004	-2.428442e-003	1.017706e-002
4.026896308291228e-004	4.966477e-003	-6.925859e-002
4.066896308292378e-004	1.204933e-002	-1.455188e-001
4.106896308293528e-004	1.837509e-002	-2.133374e-001
4.146896308294679e-004	2.354627e-002	-2.678040e-001
4.186896308295829e-004	2.735506e-002	-3.062302e-001
4.216361855777784e-004	2.919305e-002	-3.230630e-001
4.232832269090991e-004	2.975258e-002	-3.269216e-001
4.247918428426090e-004	2.992465e-002	-3.264335e-001
4.264226281134320e-004	2.976549e-002	-3.218777e-001
4.288153018783270e-004	2.887851e-002	-3.077217e-001
4.326896324622354e-004	2.616232e-002	-2.705888e-001
4.366896324623504e-004	2.191560e-002	-2.169955e-001
4.406896324624654e-004	1.630545e-002	-1.500344e-001
4.446896324625804e-004	9.670771e-003	-7.439032e-002
4.486896324626954e-004	2.428439e-003	4.739836e-003
4.526896324628105e-004	-4.966480e-003	8.222916e-002
4.566896324629255e-004	-1.204934e-002	1.533861e-001
4.606896324630405e-004	-1.837509e-002	2.142063e-001
4.646896324631555e-004	-2.354627e-002	2.615096e-001
4.686896324632706e-004	-2.735506e-002	2.941379e-001
4.716361861958340e-004	-2.919305e-002	3.082576e-001
4.732832276768129e-004	-2.975258e-002	3.115105e-001
4.747918427536746e-004	-2.992465e-002	3.111876e-001
4.764226280800088e-004	-2.976549e-002	3.075244e-001
4.788153018235875e-004	-2.887851e-002	2.958853e-001
4.826896323741892e-004	-2.616232e-002	2.646997e-001
4.866896323743042e-004	-2.191560e-002	2.183681e-001
4.906896323744192e-004	-1.630545e-002	1.583323e-001
4.946896323745342e-004	-9.670771e-003	8.759827e-002
4.986896323746493e-004	-2.428439e-003	1.015923e-002
5.026896323747643e-004	4.966480e-003	-6.927644e-002
5.066896323748793e-004	1.204934e-002	-1.455366e-001
5.106896323749943e-004	1.837509e-002	-2.133552e-001
5.146896323751093e-004	2.354627e-002	-2.678216e-001
5.186896323752244e-004	2.735506e-002	-3.062475e-001
5.216361861624108e-004	2.919305e-002	-3.230801e-001
5.232832276353960e-004	2.975258e-002	-3.269386e-001
5.247918427584430e-004	2.992465e-002	-3.264503e-001
5.264226280821127e-004	2.976549e-002	-3.218943e-001
5.288153018270236e-004	2.887851e-002	-3.077380e-001
5.326896323798458e-004	2.616232e-002	-2.706047e-001
5.366896323799608e-004	2.191560e-002	-2.170108e-001
5.406896323800758e-004	1.630545e-002	-1.500491e-001
5.446896323801909e-004	9.670771e-003	-7.440435e-002
5.486896323803059e-004	2.428439e-003	4.726416e-003
5.526896323804209e-004	-4.966480e-003	8.221632e-002
5.566896323805359e-004	-1.204934e-002	1.533738e-001
5.606896323806510e-004	-1.837509e-002	2.141945e-001
5.646896323807660e-004	-2.354627e-002	2.614982e-001
5.686896323808810e-004	-2.735506e-002	2.941268e-001
5.716361861649588e-004	-2.919305e-002	3.082468e-001
5.732832276383881e-004	-2.975258e-002	3.114998e-001
5.747918427578824e-004	-2.992465e-002	3.111770e-001
5.764226280815521e-004	-2.976549e-002	3.075138e-001
5.788153018264630e-004	-2.887851e-002	2.958748e-001
5.826896323788411e-004	-2.616232e-002	2.646893e-001
5.866896323789561e-004	-2.191560e-002	2.183577e-001
5.906896323790711e-004	-1.630545e-002	1.583220e-001
5.946896323791862e-004	-9.670771e-003	8.758792e-002
5.986896323793012e-004	-2.428439e-003	1.014887e-002
6.026896323794162e-004	4.966480e-003	-6.928681e-002
6.066896323795312e-004	1.204934e-002	-1.455470e-001
6.106896323796462e-004	1.837509e-002	-2.133655e-001
6.146896323797613e-004	2.354627e-002	-2.678318e-001
6.186896323798763e-004	2.735506e-002	-3.062576e-001
6.216361861643982e-004	2.919305e-002	-3.230901e-001
6.232832276378275e-004	2.975258e-002	-3.269484e-001
6.247918427582100e-004	2.992465e-002	-3.264601e-001
6.264226280818797e-004	2.976549e-002	-3.219040e-001
6.288153018267906e-004	2.887851e-002	-3.077476e-001
6.326896323791686e-004	2.616232e-002	-2.706139e-001
6.366896323792837e-004	2.191560e-002	-2.170197e-001
6.406896323793987e-004	1.630545e-002	-1.500576e-001
6.446896323795137e-004	9.670771e-003	-7.441255e-002
6.486896323796287e-004	2.428439e-003	4.718563e-003
6.526896323797438e-004	-4.966480e-003	8.220880e-002
6.566896323798588e-004	-1.204934e-002	1.533666e-001
6.606896323799738e-004	-1.837509e-002	2.141876e-001
6.646896323800888e-004	-2.354627e-002	2.614915e-001
6.686896323802039e-004	-2.735506e-002	2.941203e-001
6.716361861642817e-004	-2.919305e-002	3.082404e-001
6.732832276377110e-004	-2.975258e-002	3.114935e-001
6.747918427580935e-004	-2.992465e-002	3.111707e-001
6.764226280817631e-004	-2.976549e-002	3.075076e-001
6.788153018266740e-004	-2.887851e-002	2.958686e-001
6.826896323790521e-004	-2.616232e-002	2.646832e-001
6.866896323791671e-004	-2.191560e-002	2.183516e-001
6.906896323792822e-004	-1.630545e-002	1.583159e-001
6.946896323793972e-004	-9.670771e-003	8.758184e-002
6.986896323795122e-004	-2.428439e-003	1.014277e-002
7.026896323796272e-004	4.966480e-003	-6.929293e-002
7.066896323797423e-004	1.204934e-002	-1.455531e-001
7.106896323798573e-004	1.837509e-002	-2.133716e-001
7.146896323799723e-004	2.354627e-002	-2.678378e-001
7.186896323800873e-004	2.735506e-002	-3.062636e-001
7.216361861646092e-004	2.919305e-002	-3.230959e-001
7.232832276380385e-004	2.975258e-002	-3.269542e-001
7.247918427579769e-004	2.992465e-002	-3.264659e-001
7.264226280816466e-004	2.976549e-002	-3.219098e-001
7.288153018265575e-004	2.887851e-002	-3.077532e-001
7.326896323789356e-004	2.616232e-002	-2.706193e-001
7.366896323790506e-004	2.191560e-002	-2.170249e-001
7.406896323791656e-004	1.630545e-002	-1.500627e-001
7.446896323792807e-004	9.670771e-003	-7.441741e-002
7.486896323793957e-004	2.428439e-003	4.713905e-003
7.526896323795107e-004	-4.966480e-003	8.220434e-002
7.566896323796257e-004	-1.204934e-002	1.533623e-001
7.606896323797407e-004	-1.837509e-002	2.141834e-001
7.646896323798558e-004	-2.354627e-002	2.614875e-001
7.686896323799708e-004	-2.735506e-002	2.941165e-001
7.716361861644927e-004	-2.919305e-002	3.082366e-001
7.732832276379220e-004	-2.975258e-002	3.114897e-001
7.747918427578604e-004	-2.992465e-002	3.111670e-001
7.764226280815301e-004	-2.976549e-002	3.075039e-001
7.788153018264410e-004	-2.887851e-002	2.958649e-001
7.826896323788191e-004	-2.616232e-002	2.646795e-001
7.866896323789341e-004	-2.191560e-002	2.183480e-001
7.906896323790491e-004	-1.630545e-002	1.583123e-001
7.946896323791641e-004	-9.670771e-003	8.757819e-002
7.986896323792792e-004	-2.428439e-003	1.013911e-002
8.026896323793942e-004	4.966480e-003	-6.929658e-002
8.066896323795092e-004	1.204934e-002	-1.455567e-001
8.106896323796242e-004	1.837509e-002	-2.133752e-001
8.146896323797392e-004	2.354627e-002	-2.678414e-001
8.186896323798543e-004	2.735506e-002	-3.062671e-001
8.216361861643762e-004	2.919305e-002	-3.230995e-001
8.232832276378055e-004	2.975258e-002	-3.269578e-001
8.247918427577439e-004	2.992465e-002	-3.264694e-001
8.264226280818576e-004	2.976549e-002	-3.219132e-001
8.288153018267686e-004	2.887851e-002	-3.077566e-001
8.326896323795907e-004	2.616232e-002	-2.706226e-001
8.366896323797057e-004	2.191560e-002	-2.170281e-001
8.406896323798208e-004	1.630545e-002	-1.500657e-001
8.446896323799358e-004	9.670771e-003	-7.442036e-002
8.486896323800508e-004	2.428439e-003	4.711079e-003
8.526896323801658e-004	-4.966480e-003	8.220162e-002
8.566896323802808e-004	-1.204934e-002	1.533597e-001
8.606896323803959e-004	-1.837509e-002	2.141809e-001
8.646896323805109e-004	-2.354627e-002	2.614851e-001
8.686896323806259e-004	-2.735506e-002	2.941141e-001
8.716361861647037e-004	-2.919305e-002	3.082343e-001
8.732832276381330e-004	-2.975258e-002	3.114874e-001
8.747918427580714e-004	-2.992465e-002	3.111647e-001
8.764226280817411e-004	-2.976549e-002	3.075016e-001
8.788153018266520e-004	-2.887851e-002	2.958627e-001
8.826896323790301e-004	-2.616232e-002	2.646773e-001
8.866896323791451e-004	-2.191560e-002	2.183457e-001
8.906896323792601e-004	-1.630545e-002	1.583100e-001
8.946896323793752e-004	-9.670771e-003	8.757595e-002
8.986896323794902e-004	-2.428439e-003	1.013687e-002
9.026896323796052e-004	4.966480e-003	-6.929883e-002
9.066896323797202e-004	1.204934e-002	-1.455590e-001
9.106896323798353e-004	1.837509e-002	-2.133774e-001
9.146896323799503e-004	2.354627e-002	-2.678436e-001
9.186896323800653e-004	2.735506e-002	-3.062693e-001
9.216361861641431e-004	2.919305e-002	-3.231016e-001
9.232832276371283e-004	2.975258e-002	-3.269599e-001
9.247918427583990e-004	2.992465e-002	-3.264715e-001
9.264226280816246e-004	2.976549e-002	-3.219153e-001
9.288153018265355e-004	2.887851e-002	-3.077587e-001
9.326896323789136e-004	2.616232e-002	-2.706246e-001
9.366896323790286e-004	2.191560e-002	-2.170300e-001
9.406896323791436e-004	1.630545e-002	-1.500677e-001
9.446896323792586e-004	9.670771e-003	-7.442219e-002
9.486896323793737e-004	2.428439e-003	4.709309e-003
9.526896323794887e-004	-4.966480e-003	8.219992e-002
9.566896323796037e-004	-1.204934e-002	1.533581e-001
9.606896323797187e-004	-1.837509e-002	2.141793e-001
9.646896323798337e-004	-2.354627e-002	2.614836e-001
9.686896323799488e-004	-2.735506e-002	2.941126e-001
9.716361861640266e-004	-2.919305e-002	3.082328e-001
9.732832276374559e-004	-2.975258e-002	3.114859e-001
9.747918427582825e-004	-2.992465e-002	3.111632e-001
9.764226280819521e-004	-2.976549e-002	3.075001e-001
9.788153018268631e-004	-2.887851e-002	2.958612e-001
9.826896323792411e-004	-2.616232e-002	2.646758e-001
9.866896323793561e-004	-2.191560e-002	2.183443e-001
9.906896323794712e-004	-1.630545e-002	1.583086e-001
9.946896323795862e-004	-9.670771e-003	8.757451e-002
9.986896323797012e-004	-2.445802e-003	1.039685e-002
9.999999999998899e-004	-7.839267e-014	-1.580706e-002
