time	V(g1)	V(out)
0.000000000000000e+000	0.000000e+000	3.148880e-014
3.999999984016789e-011	2.513274e-008	-4.346153e-013
3.091172699646199e-008	1.942254e-005	-1.037075e-005
6.178345399308381e-008	3.881971e-005	-3.180695e-005
9.265518098970564e-008	5.821663e-005	-6.430859e-005
1.235269079863275e-007	7.761331e-005	-1.078757e-004
1.543986349829493e-007	9.700975e-005	-1.625082e-004
1.852703619795711e-007	1.164060e-004	-2.282062e-004
2.161420889761929e-007	1.358019e-004	-3.049696e-004
3.199026016444524e-007	2.009872e-004	-6.135433e-004
4.626271068233879e-007	2.906363e-004	-1.159600e-003
6.464985805873299e-007	4.060954e-004	-2.015319e-003
8.941826595266234e-007	5.615360e-004	-3.350118e-003
1.220280134921984e-006	7.659736e-004	-5.294822e-003
1.673459751801671e-006	1.049529e-003	-8.171063e-003
2.316898349569302e-006	1.450614e-003	-1.237594e-002
3.316898349569302e-006	2.069015e-003	-1.894536e-002
4.316898349569302e-006	2.679251e-003	-2.545154e-002
5.316898349569302e-006	3.278913e-003	-3.184208e-002
6.316898349569301e-006	3.865634e-003	-3.808707e-002
7.316898349569301e-006	4.437100e-003	-4.416115e-002
8.316898349569301e-006	4.991055e-003	-5.003942e-002
9.316898349569301e-006	5.525311e-003	-5.569768e-002
1.031689834956930e-005	6.037763e-003	-6.111252e-002
1.131689834956930e-005	6.526385e-003	-6.627141e-002
1.218193435842779e-005	6.928352e-003	-7.049800e-002
1.313172768860568e-005	7.346094e-003	-7.486179e-002
1.413172768860569e-005	7.757626e-003	-7.914667e-002
1.513172768860569e-005	8.138541e-003	-8.309419e-002
1.613172768860568e-005	8.487338e-003	-8.668370e-002
1.713172768860569e-005	8.802639e-003	-8.990002e-002
1.813172768860569e-005	9.083200e-003	-9.272957e-002
1.913172768860569e-005	9.327915e-003	-9.516039e-002
2.013172768860569e-005	9.535816e-003	-9.718221e-002
2.113172768860569e-005	9.706083e-003	-9.878652e-002
2.213172768860569e-005	9.838045e-003	-9.996657e-002
2.313172768860569e-005	9.931181e-003	-1.007175e-001
2.413172768860569e-005	9.985123e-003	-1.010362e-001
2.513172768860569e-005	9.999657e-003	-1.009215e-001
2.613172768860569e-005	9.974728e-003	-1.003741e-001
2.713172768860569e-005	9.910434e-003	-9.939650e-002
2.813172768860569e-005	9.807027e-003	-9.799317e-002
2.913172768860569e-005	9.664916e-003	-9.617031e-002
3.013172768860569e-005	9.484664e-003	-9.393594e-002
3.113172768860569e-005	9.266978e-003	-9.129985e-002
3.213172768860569e-005	9.012721e-003	-8.827352e-002
3.313172768860569e-005	8.722894e-003	-8.487006e-002
3.413172768860569e-005	8.398642e-003	-8.110419e-002
3.513172768860568e-005	8.041244e-003	-7.699206e-002
3.613172768860568e-005	7.652111e-003	-7.255131e-002
3.713172768860568e-005	7.232779e-003	-6.780216e-002
3.811303741970865e-005	6.793525e-003	-6.285883e-002
3.911303741970865e-005	6.319355e-003	-5.755408e-002
4.011303741970865e-005	5.820245e-003	-5.200423e-002
4.111303741970865e-005	5.298166e-003	-4.623122e-002
4.211303741970864e-005	4.755178e-003	-4.025906e-002
4.311303741970864e-005	4.193422e-003	-3.411249e-002
4.411303741970864e-005	3.615117e-003	-2.781681e-002
4.511303741970864e-005	3.022545e-003	-2.139779e-002
4.611303741970863e-005	2.418044e-003	-1.488157e-002
4.711303741970863e-005	1.804001e-003	-8.294511e-003
4.811303741970863e-005	1.182838e-003	-1.663121e-003
4.911303741970862e-005	5.570066e-004	4.986080e-003
5.011303741970862e-005	-7.102291e-005	1.162666e-002
5.111303741970862e-005	-6.987721e-004	1.823240e-002
5.211303741970862e-005	-1.323764e-003	2.477734e-002
5.311303741970861e-005	-1.943531e-003	3.123596e-002
5.411303741970861e-005	-2.555628e-003	3.758319e-002
5.511303741970861e-005	-3.157639e-003	4.379458e-002
5.611303741970860e-005	-3.747188e-003	4.984631e-002
5.711303741970860e-005	-4.321949e-003	5.571532e-002
5.811303741970860e-005	-4.879653e-003	6.137938e-002
5.911303741970860e-005	-5.418099e-003	6.681715e-002
6.011303741970859e-005	-5.935163e-003	7.200825e-002
6.111303741970859e-005	-6.428803e-003	7.693332e-002
6.211303741970859e-005	-6.897072e-003	8.157461e-002
6.310607737112896e-005	-7.335149e-003	8.588480e-002
6.410607737112895e-005	-7.747446e-003	8.990838e-002
6.510607737112895e-005	-8.129166e-003	9.360044e-002
6.610607737112895e-005	-8.478804e-003	9.694692e-002
6.710607737112894e-005	-8.794981e-003	9.993564e-002
6.810607737112894e-005	-9.076447e-003	1.025557e-001
6.910607737112894e-005	-9.322094e-003	1.047976e-001
7.010607737112894e-005	-9.530949e-003	1.066531e-001
7.110607737112893e-005	-9.702192e-003	1.081156e-001
7.210607737112893e-005	-9.835144e-003	1.091796e-001
7.310607737112893e-005	-9.929280e-003	1.098413e-001
7.410607737112893e-005	-9.984231e-003	1.100982e-001
7.510607737112892e-005	-9.999778e-003	1.099491e-001
7.610607737112892e-005	-9.975861e-003	1.093945e-001
7.710607737112892e-005	-9.912573e-003	1.084363e-001
7.810607737112891e-005	-9.810166e-003	1.070776e-001
7.910607737112891e-005	-9.669041e-003	1.053232e-001
8.010607737112891e-005	-9.489758e-003	1.031791e-001
8.110607737112891e-005	-9.273023e-003	1.006530e-001
8.210607737112890e-005	-9.019691e-003	9.775378e-002
8.310607737112890e-005	-8.730764e-003	9.449163e-002
8.410607737112890e-005	-8.407379e-003	9.087824e-002
8.510607737112889e-005	-8.050814e-003	8.692656e-002
8.610607737112889e-005	-7.662477e-003	8.265084e-002
8.710607737112889e-005	-7.243899e-003	7.806674e-002
8.810348518720088e-005	-6.797928e-003	7.320361e-002
8.910348518720087e-005	-6.324005e-003	6.805401e-002
9.010348518720087e-005	-5.825125e-003	6.264952e-002
9.110348518720087e-005	-5.303255e-003	5.701001e-002
9.210348518720086e-005	-4.760456e-003	5.115651e-002
9.310348518720086e-005	-4.198870e-003	4.511100e-002
9.410348518720086e-005	-3.620713e-003	3.889630e-002
9.510348518720086e-005	-3.028266e-003	3.253602e-002
9.610348518720085e-005	-2.423868e-003	2.605451e-002
9.710348518720085e-005	-1.809904e-003	1.947670e-002
9.810348518720085e-005	-1.188797e-003	1.282808e-002
9.910348518720084e-005	-5.629990e-004	6.134559e-003
1.001034851872008e-004	6.502120e-005	-5.775973e-004
1.011034851872008e-004	6.927848e-004	-7.281897e-003
1.021034851872008e-004	1.317814e-003	-1.395172e-002
1.031034851872008e-004	1.937643e-003	-2.056041e-002
1.041034851872008e-004	2.549825e-003	-2.708141e-002
1.051034851872008e-004	3.151943e-003	-3.348839e-002
1.061034851872008e-004	3.741623e-003	-3.975529e-002
1.071034851872008e-004	4.316536e-003	-4.585652e-002
1.081034851872008e-004	4.874413e-003	-5.176705e-002
1.091034851872008e-004	5.413054e-003	-5.746248e-002
1.101034851872008e-004	5.930332e-003	-6.291921e-002
1.111034851872008e-004	6.424205e-003	-6.811456e-002
1.121034851872008e-004	6.892725e-003	-7.302687e-002
1.131025197121970e-004	7.333630e-003	-7.763112e-002
1.141025197121970e-004	7.746032e-003	-8.191682e-002
1.151025197121970e-004	8.127864e-003	-8.586146e-002
1.161025197121970e-004	8.477619e-003	-8.944827e-002
1.171025197121970e-004	8.793917e-003	-9.266206e-002
1.181025197121970e-004	9.075509e-003	-9.548919e-002
1.191025197121970e-004	9.321284e-003	-9.791764e-002
1.201025197121970e-004	9.530273e-003	-9.993710e-002
1.211025197121970e-004	9.701650e-003	-1.015390e-001
1.221025197121970e-004	9.834738e-003	-1.027166e-001
1.231025197121970e-004	9.929014e-003	-1.034648e-001
1.241025197121970e-004	9.984105e-003	-1.037807e-001
1.251025197121970e-004	9.999792e-003	-1.036630e-001
1.261025197121970e-004	9.976015e-003	-1.031122e-001
1.271025197121970e-004	9.912868e-003	-1.021309e-001
1.281025197121969e-004	9.810599e-003	-1.007235e-001
1.291025197121969e-004	9.669611e-003	-9.889617e-002
1.301025197121969e-004	9.490463e-003	-9.665685e-002
1.311025197121969e-004	9.273860e-003	-9.401532e-002
1.321025197121969e-004	9.020656e-003	-9.098300e-002
1.331025197121969e-004	8.731853e-003	-8.757299e-002
1.341025197121969e-004	8.408589e-003	-8.379997e-002
1.351025197121969e-004	8.052140e-003	-7.968008e-002
1.361025197121969e-004	7.663913e-003	-7.523090e-002
1.371025197121969e-004	7.245440e-003	-7.047138e-002
1.381021601082906e-004	6.798538e-003	-6.542346e-002
1.391021601082906e-004	6.324650e-003	-6.010477e-002
1.401021601082906e-004	5.825802e-003	-5.453945e-002
1.411021601082906e-004	5.303961e-003	-4.875068e-002
1.421021601082906e-004	4.761189e-003	-4.276249e-002
1.431021601082906e-004	4.199625e-003	-3.659963e-002
1.441021601082906e-004	3.621489e-003	-3.028741e-002
1.451021601082906e-004	3.029059e-003	-2.385163e-002
1.461021601082906e-004	2.424676e-003	-1.731842e-002
1.471021601082906e-004	1.810723e-003	-1.071418e-002
1.481021601082906e-004	1.189624e-003	-4.065428e-003
1.491021601082906e-004	5.638303e-004	2.601304e-003
1.501021601082906e-004	-6.418865e-005	9.259565e-003
1.511021601082906e-004	-6.919542e-004	1.588310e-002
1.521021601082906e-004	-1.316989e-003	2.244595e-002
1.531021601082906e-004	-1.936826e-003	2.892257e-002
1.541021601082906e-004	-2.549020e-003	3.528786e-002
1.551021601082906e-004	-3.151153e-003	4.151735e-002
1.561021601082906e-004	-3.740851e-003	4.758720e-002
1.571021601082906e-004	-4.315785e-003	5.347434e-002
1.581021601082906e-004	-4.873686e-003	5.915650e-002
1.591021601082906e-004	-5.412354e-003	6.461234e-002
1.601021601082906e-004	-5.929661e-003	6.982143e-002
1.611021601082906e-004	-6.423567e-003	7.476442e-002
1.621021601082906e-004	-6.892121e-003	7.942300e-002
1.631020261681313e-004	-7.333419e-003	8.377942e-002
1.641020261681313e-004	-7.745836e-003	8.781887e-002
1.651020261681313e-004	-8.127684e-003	9.152599e-002
1.661020261681313e-004	-8.477455e-003	9.488727e-002
1.671020261681313e-004	-8.793769e-003	9.789050e-002
1.681020261681313e-004	-9.075379e-003	1.005248e-001
1.691020261681313e-004	-9.321172e-003	1.027806e-001
1.701020261681313e-004	-9.530179e-003	1.046498e-001
1.711020261681313e-004	-9.701575e-003	1.061256e-001
1.721020261681313e-004	-9.834683e-003	1.072027e-001
1.731020261681313e-004	-9.928978e-003	1.078771e-001
1.741020261681313e-004	-9.984087e-003	1.081464e-001
1.751020261681313e-004	-9.999795e-003	1.080094e-001
1.761020261681313e-004	-9.976037e-003	1.074666e-001
1.771020261681313e-004	-9.912909e-003	1.065198e-001
1.781020261681313e-004	-9.810659e-003	1.051723e-001
1.791020261681313e-004	-9.669690e-003	1.034288e-001
1.801020261681313e-004	-9.490561e-003	1.012953e-001
1.811020261681313e-004	-9.273975e-003	9.877948e-002
1.821020261681313e-004	-9.020790e-003	9.589018e-002
1.831020261681313e-004	-8.732004e-003	9.263772e-002
1.841020261681313e-004	-8.408757e-003	8.903373e-002
1.851020261681313e-004	-8.052324e-003	8.509117e-002
1.861020261681313e-004	-7.664112e-003	8.082432e-002
1.871020261681313e-004	-7.245654e-003	7.624865e-002
1.881019762798714e-004	-6.798623e-003	7.138112e-002
1.891019762798714e-004	-6.324740e-003	6.623913e-002
1.901019762798714e-004	-5.825896e-003	6.084191e-002
1.911019762798714e-004	-5.304059e-003	5.520951e-002
1.921019762798714e-004	-4.761290e-003	4.936296e-002
1.931019762798714e-004	-4.199730e-003	4.332425e-002
1.941019762798714e-004	-3.621596e-003	3.711624e-002
1.951019762798714e-004	-3.029169e-003	3.076254e-002
1.961019762798714e-004	-2.424788e-003	2.428751e-002
1.971019762798714e-004	-1.810836e-003	1.771610e-002
1.981019762798714e-004	-1.189739e-003	1.107380e-002
1.991019762798714e-004	-5.639456e-004	4.386560e-003
2.001019762798713e-004	6.407315e-005	-2.319364e-003
2.011019762798713e-004	6.918390e-004	-9.017458e-003
2.021019762798713e-004	1.316875e-003	-1.568109e-002
2.031019762798713e-004	1.936713e-003	-2.228359e-002
2.041019762798713e-004	2.548908e-003	-2.879839e-002
2.051019762798713e-004	3.151044e-003	-3.519914e-002
2.061019762798713e-004	3.740744e-003	-4.145979e-002
2.071019762798713e-004	4.315681e-003	-4.755472e-002
2.081019762798713e-004	4.873585e-003	-5.345888e-002
2.091019762798713e-004	5.412257e-003	-5.914789e-002
2.101019762798713e-004	5.929568e-003	-6.459812e-002
2.111019762798713e-004	6.423478e-003	-6.978687e-002
2.121019762798713e-004	6.892038e-003	-7.469242e-002
2.131019576981337e-004	7.333390e-003	-7.929409e-002
2.141019576981337e-004	7.745808e-003	-8.357266e-002
2.151019576981337e-004	8.127659e-003	-8.750996e-002
2.161019576981337e-004	8.477432e-003	-9.108929e-002
2.171019576981337e-004	8.793749e-003	-9.429546e-002
2.181019576981337e-004	9.075361e-003	-9.711482e-002
2.191019576981337e-004	9.321157e-003	-9.953535e-002
2.201019576981337e-004	9.530166e-003	-1.015468e-001
2.211019576981337e-004	9.701564e-003	-1.031405e-001
2.221019576981337e-004	9.834675e-003	-1.043097e-001
2.231019576981337e-004	9.928972e-003	-1.050494e-001
2.241019576981337e-004	9.984085e-003	-1.053567e-001
2.251019576981337e-004	9.999795e-003	-1.052301e-001
2.261019576981337e-004	9.976040e-003	-1.046704e-001
2.271019576981337e-004	9.912915e-003	-1.036801e-001
2.281019576981337e-004	9.810667e-003	-1.022635e-001
2.291019576981337e-004	9.669702e-003	-1.004268e-001
2.301019576981337e-004	9.490574e-003	-9.817806e-002
2.311019576981337e-004	9.273992e-003	-9.552696e-002
2.321019576981337e-004	9.020809e-003	-9.248499e-002
2.331019576981337e-004	8.732026e-003	-8.906522e-002
2.341019576981337e-004	8.408780e-003	-8.528234e-002
2.351019576981336e-004	8.052349e-003	-8.115251e-002
2.361019576981336e-004	7.664140e-003	-7.669333e-002
2.371019576981336e-004	7.245684e-003	-7.192370e-002
2.381019507770444e-004	6.798635e-003	-6.686381e-002
2.391019507770444e-004	6.324752e-003	-6.153487e-002
2.401019507770444e-004	5.825909e-003	-5.595925e-002
2.411019507770444e-004	5.304073e-003	-5.016015e-002
2.421019507770444e-004	4.761304e-003	-4.416164e-002
2.431019507770444e-004	4.199745e-003	-3.798845e-002
2.441019507770444e-004	3.621611e-003	-3.166592e-002
2.451019507770444e-004	3.029185e-003	-2.521984e-002
2.461019507770444e-004	2.424803e-003	-1.867638e-002
2.471019507770445e-004	1.810852e-003	-1.206193e-002
2.481019507770445e-004	1.189755e-003	-5.403016e-003
2.491019507770445e-004	5.639616e-004	1.273807e-003
2.501019507770445e-004	-6.405712e-005	7.942084e-003
2.511019507770446e-004	-6.918230e-004	1.457555e-002
2.521019507770446e-004	-1.316859e-003	2.114824e-002
2.531019507770446e-004	-1.936697e-003	2.763459e-002
2.541019507770446e-004	-2.548893e-003	3.400950e-002
2.551019507770446e-004	-3.151028e-003	4.024849e-002
2.561019507770447e-004	-3.740729e-003	4.632771e-002
2.571019507770447e-004	-4.315666e-003	5.222408e-002
2.581019507770447e-004	-4.873571e-003	5.791534e-002
2.591019507770447e-004	-5.412243e-003	6.338011e-002
2.601019507770448e-004	-5.929555e-003	6.859799e-002
2.611019507770448e-004	-6.423466e-003	7.354960e-002
2.621019507770448e-004	-6.892026e-003	7.821662e-002
2.631019481991650e-004	-7.333386e-003	8.258188e-002
2.641019481991650e-004	-7.745805e-003	8.662941e-002
2.651019481991650e-004	-8.127655e-003	9.034441e-002
2.661019481991651e-004	-8.477429e-003	9.371340e-002
2.671019481991651e-004	-8.793746e-003	9.672415e-002
2.681019481991651e-004	-9.075359e-003	9.936576e-002
2.691019481991651e-004	-9.321154e-003	1.016287e-001
2.701019481991652e-004	-9.530164e-003	1.035049e-001
2.711019481991652e-004	-9.701563e-003	1.049875e-001
2.721019481991652e-004	-9.834674e-003	1.060711e-001
2.731019481991652e-004	-9.928972e-003	1.067519e-001
2.741019481991653e-004	-9.984084e-003	1.070274e-001
2.751019481991653e-004	-9.999795e-003	1.068965e-001
2.761019481991653e-004	-9.976041e-003	1.063596e-001
2.771019481991653e-004	-9.912916e-003	1.054185e-001
2.781019481991653e-004	-9.810668e-003	1.040765e-001
2.791019481991654e-004	-9.669703e-003	1.023383e-001
2.801019481991654e-004	-9.490576e-003	1.002100e-001
2.811019481991654e-004	-9.273994e-003	9.769922e-002
2.821019481991654e-004	-9.020811e-003	9.481481e-002
2.831019481991655e-004	-8.732028e-003	9.156711e-002
2.841019481991655e-004	-8.408783e-003	8.796775e-002
2.851019481991655e-004	-8.052353e-003	8.402969e-002
2.861019481991655e-004	-7.664144e-003	7.976720e-002
2.871019481991656e-004	-7.245688e-003	7.519580e-002
2.881019472389891e-004	-6.798637e-003	7.033219e-002
2.891019472389891e-004	-6.324754e-003	6.519426e-002
2.901019472389891e-004	-5.825910e-003	5.980100e-002
2.911019472389892e-004	-5.304075e-003	5.417249e-002
2.921019472389892e-004	-4.761306e-003	4.832976e-002
2.931019472389892e-004	-4.199747e-003	4.229482e-002
2.941019472389892e-004	-3.621613e-003	3.609052e-002
2.951019472389893e-004	-3.029187e-003	2.974048e-002
2.961019472389893e-004	-2.424805e-003	2.326908e-002
2.971019472389893e-004	-1.810854e-003	1.670127e-002
2.981019472389893e-004	-1.189757e-003	1.006256e-002
2.991019472389894e-004	-5.639638e-004	3.378897e-003
3.001019472389894e-004	6.405490e-005	-3.323451e-003
3.011019472389894e-004	6.918208e-004	-1.001796e-002
3.021019472389894e-004	1.316856e-003	-1.667800e-002
3.031019472389895e-004	1.936695e-003	-2.327688e-002
3.041019472389895e-004	2.548890e-003	-2.978804e-002
3.051019472389895e-004	3.151026e-003	-3.618511e-002
3.061019472389895e-004	3.740727e-003	-4.244203e-002
3.071019472389896e-004	4.315664e-003	-4.853320e-002
3.081019472389896e-004	4.873570e-003	-5.443354e-002
3.091019472389896e-004	5.412241e-003	-6.011866e-002
3.101019472389896e-004	5.929553e-003	-6.556495e-002
3.111019472389897e-004	6.423464e-003	-7.074969e-002
3.121019472389897e-004	6.892025e-003	-7.565116e-002
3.131019468813550e-004	7.333385e-003	-8.024875e-002
3.141019468813550e-004	7.745804e-003	-8.452307e-002
3.151019468813550e-004	8.127654e-003	-8.845605e-002
3.161019468813551e-004	8.477428e-003	-9.203097e-002
3.171019468813551e-004	8.793745e-003	-9.523264e-002
3.181019468813551e-004	9.075359e-003	-9.804742e-002
3.191019468813551e-004	9.321154e-003	-1.004633e-001
3.201019468813552e-004	9.530164e-003	-1.024700e-001
3.211019468813552e-004	9.701563e-003	-1.040588e-001
3.221019468813552e-004	9.834673e-003	-1.052231e-001
3.231019468813552e-004	9.928972e-003	-1.059579e-001
3.241019468813553e-004	9.984084e-003	-1.062600e-001
3.251019468813553e-004	9.999795e-003	-1.061282e-001
3.261019468813553e-004	9.976041e-003	-1.055633e-001
3.271019468813553e-004	9.912916e-003	-1.045676e-001
3.281019468813554e-004	9.810668e-003	-1.031456e-001
3.291019468813554e-004	9.669703e-003	-1.013035e-001
3.301019468813554e-004	9.490576e-003	-9.904917e-002
3.311019468813554e-004	9.273994e-003	-9.639247e-002
3.321019468813555e-004	9.020812e-003	-9.334483e-002
3.331019468813555e-004	8.732028e-003	-8.991934e-002
3.341019468813555e-004	8.408784e-003	-8.613069e-002
3.351019468813555e-004	8.052354e-003	-8.199506e-002
3.361019468813556e-004	7.664145e-003	-7.753003e-002
3.371019468813556e-004	7.245688e-003	-7.275452e-002
3.381019467481479e-004	6.798637e-003	-6.768870e-002
3.391019467481479e-004	6.324754e-003	-6.235384e-002
3.401019467481480e-004	5.825911e-003	-5.677228e-002
3.411019467481480e-004	5.304075e-003	-5.096724e-002
3.421019467481480e-004	4.761307e-003	-4.496277e-002
3.431019467481480e-004	4.199747e-003	-3.878364e-002
3.441019467481481e-004	3.621614e-003	-3.245518e-002
3.451019467481481e-004	3.029187e-003	-2.600319e-002
3.461019467481481e-004	2.424806e-003	-1.945383e-002
3.471019467481481e-004	1.810855e-003	-1.283351e-002
3.481019467481482e-004	1.189757e-003	-6.168772e-003
3.491019467481482e-004	5.639641e-004	5.138406e-004
3.501019467481482e-004	-6.405459e-005	7.187860e-003
3.511019467481482e-004	-6.918205e-004	1.382702e-002
3.521019467481483e-004	-1.316856e-003	2.040534e-002
3.531019467481483e-004	-1.936695e-003	2.689726e-002
3.541019467481483e-004	-2.548890e-003	3.327768e-002
3.551019467481483e-004	-3.151026e-003	3.952209e-002
3.561019467481484e-004	-3.740727e-003	4.560667e-002
3.571019467481484e-004	-4.315664e-003	5.150832e-002
3.581019467481484e-004	-4.873570e-003	5.720476e-002
3.591019467481484e-004	-5.412241e-003	6.267464e-002
3.601019467481485e-004	-5.929553e-003	6.789753e-002
3.611019467481485e-004	-6.423464e-003	7.285405e-002
3.621019467481485e-004	-6.892025e-003	7.752589e-002
3.631019466985326e-004	-7.333385e-003	8.189587e-002
3.641019466985326e-004	-7.745804e-003	8.594801e-002
3.651019466985327e-004	-8.127654e-003	8.966753e-002
3.661019466985327e-004	-8.477428e-003	9.304091e-002
3.671019466985327e-004	-8.793745e-003	9.605595e-002
3.681019466985327e-004	-9.075358e-003	9.870177e-002
3.691019466985328e-004	-9.321154e-003	1.009688e-001
3.701019466985328e-004	-9.530164e-003	1.028489e-001
