Freq.	V(out)
1.00000000000000e+002	(6.96703767463670e+000dB,-1.44686376724230e+002°)
1.00230523807790e+002	(6.97301219123734e+000dB,-1.44663333550302e+002°)
1.00461579027840e+002	(6.97900180141648e+000dB,-1.44640217140750e+002°)
1.00693166885180e+002	(6.98500654801227e+000dB,-1.44617027854303e+002°)
1.00925288607668e+002	(6.99102647370783e+000dB,-1.44593766050939e+002°)
1.01157945425990e+002	(6.99706162103006e+000dB,-1.44570432091887e+002°)
1.01391138573668e+002	(7.00311203234824e+000dB,-1.44547026339623e+002°)
1.01624869287070e+002	(7.00917774987354e+000dB,-1.44523549157870e+002°)
1.01859138805412e+002	(7.01525881565746e+000dB,-1.44500000911592e+002°)
1.02093948370768e+002	(7.02135527159111e+000dB,-1.44476381966998e+002°)
1.02329299228075e+002	(7.02746715940372e+000dB,-1.44452692691536e+002°)
1.02565192625141e+002	(7.03359452066185e+000dB,-1.44428933453894e+002°)
1.02801629812647e+002	(7.03973739676818e+000dB,-1.44405104623995e+002°)
1.03038612044162e+002	(7.04589582896053e+000dB,-1.44381206572996e+002°)
1.03276140576140e+002	(7.05206985831065e+000dB,-1.44357239673289e+002°)
1.03514216667934e+002	(7.05825952572311e+000dB,-1.44333204298494e+002°)
1.03752841581801e+002	(7.06446487193434e+000dB,-1.44309100823460e+002°)
1.03992016582906e+002	(7.07068593751156e+000dB,-1.44284929624262e+002°)
1.04231742939330e+002	(7.07692276285127e+000dB,-1.44260691078199e+002°)
1.04472021922080e+002	(7.08317538817880e+000dB,-1.44236385563792e+002°)
1.04712854805090e+002	(7.08944385354664e+000dB,-1.44212013460780e+002°)
1.04954242865232e+002	(7.09572819883380e+000dB,-1.44187575150118e+002°)
1.05196187382322e+002	(7.10202846374433e+000dB,-1.44163071013977e+002°)
1.05438689639126e+002	(7.10834468780640e+000dB,-1.44138501435739e+002°)
1.05681750921366e+002	(7.11467691037123e+000dB,-1.44113866799994e+002°)
1.05925372517729e+002	(7.12102517061208e+000dB,-1.44089167492541e+002°)
1.06169555719872e+002	(7.12738950752262e+000dB,-1.44064403900381e+002°)
1.06414301822431e+002	(7.13376995991666e+000dB,-1.44039576411715e+002°)
1.06659612123026e+002	(7.14016656642642e+000dB,-1.44014685415944e+002°)
1.06905487922266e+002	(7.14657936550149e+000dB,-1.43989731303665e+002°)
1.07151930523760e+002	(7.15300839540813e+000dB,-1.43964714466666e+002°)
1.07398941234124e+002	(7.15945369422771e+000dB,-1.43939635297926e+002°)
1.07646521362983e+002	(7.16591529985581e+000dB,-1.43914494191608e+002°)
1.07894672222983e+002	(7.17239325000114e+000dB,-1.43889291543063e+002°)
1.08143395129794e+002	(7.17888758218446e+000dB,-1.43864027748817e+002°)
1.08392691402120e+002	(7.18539833373728e+000dB,-1.43838703206579e+002°)
1.08642562361706e+002	(7.19192554180105e+000dB,-1.43813318315227e+002°)
1.08893009333343e+002	(7.19846924332575e+000dB,-1.43787873474813e+002°)
1.09144033644875e+002	(7.20502947506913e+000dB,-1.43762369086555e+002°)
1.09395636627209e+002	(7.21160627359523e+000dB,-1.43736805552837e+002°)
1.09647819614318e+002	(7.21819967527365e+000dB,-1.43711183277201e+002°)
1.09900583943252e+002	(7.22480971627820e+000dB,-1.43685502664348e+002°)
1.10153930954141e+002	(7.23143643258590e+000dB,-1.43659764120132e+002°)
1.10407861990207e+002	(7.23807985997583e+000dB,-1.43633968051558e+002°)
1.10662378397766e+002	(7.24474003402816e+000dB,-1.43608114866775e+002°)
1.10917481526240e+002	(7.25141699012292e+000dB,-1.43582204975078e+002°)
1.11173172728159e+002	(7.25811076343887e+000dB,-1.43556238786898e+002°)
1.11429453359173e+002	(7.26482138895257e+000dB,-1.43530216713803e+002°)
1.11686324778056e+002	(7.27154890143727e+000dB,-1.43504139168491e+002°)
1.11943788346715e+002	(7.27829333546165e+000dB,-1.43478006564789e+002°)
1.12201845430196e+002	(7.28505472538886e+000dB,-1.43451819317645e+002°)
1.12460497396692e+002	(7.29183310537550e+000dB,-1.43425577843128e+002°)
1.12719745617551e+002	(7.29862850937025e+000dB,-1.43399282558421e+002°)
1.12979591467279e+002	(7.30544097111322e+000dB,-1.43372933881821e+002°)
1.13240036323555e+002	(7.31227052413442e+000dB,-1.43346532232727e+002°)
1.13501081567231e+002	(7.31911720175301e+000dB,-1.43320078031644e+002°)
1.13762728582343e+002	(7.32598103707612e+000dB,-1.43293571700174e+002°)
1.14024978756117e+002	(7.33286206299763e+000dB,-1.43267013661015e+002°)
1.14287833478977e+002	(7.33976031219724e+000dB,-1.43240404337951e+002°)
1.14551294144553e+002	(7.34667581713954e+000dB,-1.43213744155854e+002°)
1.14815362149688e+002	(7.35360861007242e+000dB,-1.43187033540675e+002°)
1.15080038894443e+002	(7.36055872302677e+000dB,-1.43160272919440e+002°)
1.15345325782109e+002	(7.36752618781466e+000dB,-1.43133462720248e+002°)
1.15611224219209e+002	(7.37451103602872e+000dB,-1.43106603372265e+002°)
1.15877735615512e+002	(7.38151329904106e+000dB,-1.43079695305716e+002°)
1.16144861384034e+002	(7.38853300800195e+000dB,-1.43052738951884e+002°)
1.16412602941049e+002	(7.39557019383906e+000dB,-1.43025734743106e+002°)
1.16680961706096e+002	(7.40262488725617e+000dB,-1.42998683112765e+002°)
1.16949939101987e+002	(7.40969711873229e+000dB,-1.42971584495284e+002°)
1.17219536554813e+002	(7.41678691852052e+000dB,-1.42944439326126e+002°)
1.17489755493952e+002	(7.42389431664697e+000dB,-1.42917248041786e+002°)
1.17760597352080e+002	(7.43101934290992e+000dB,-1.42890011079783e+002°)
1.18032063565172e+002	(7.43816202687848e+000dB,-1.42862728878661e+002°)
1.18304155572516e+002	(7.44532239789178e+000dB,-1.42835401877979e+002°)
1.18576874816716e+002	(7.45250048505776e+000dB,-1.42808030518307e+002°)
1.18850222743701e+002	(7.45969631725248e+000dB,-1.42780615241220e+002°)
1.19124200802737e+002	(7.46690992311850e+000dB,-1.42753156489295e+002°)
1.19398810446427e+002	(7.47414133106450e+000dB,-1.42725654706103e+002°)
1.19674053130724e+002	(7.48139056926389e+000dB,-1.42698110336206e+002°)
1.19949930314937e+002	(7.48865766565374e+000dB,-1.42670523825146e+002°)
1.20226443461741e+002	(7.49594264793407e+000dB,-1.42642895619446e+002°)
1.20503594037179e+002	(7.50324554356659e+000dB,-1.42615226166602e+002°)
1.20781383510677e+002	(7.51056637977373e+000dB,-1.42587515915075e+002°)
1.21059813355048e+002	(7.51790518353777e+000dB,-1.42559765314287e+002°)
1.21338885046497e+002	(7.52526198159966e+000dB,-1.42531974814616e+002°)
1.21618600064636e+002	(7.53263680045816e+000dB,-1.42504144867388e+002°)
1.21898959892486e+002	(7.54002966636889e+000dB,-1.42476275924873e+002°)
1.22179966016487e+002	(7.54744060534301e+000dB,-1.42448368440279e+002°)
1.22461619926504e+002	(7.55486964314680e+000dB,-1.42420422867743e+002°)
1.22743923115840e+002	(7.56231680530012e+000dB,-1.42392439662328e+002°)
1.23026877081238e+002	(7.56978211707579e+000dB,-1.42364419280017e+002°)
1.23310483322890e+002	(7.57726560349860e+000dB,-1.42336362177704e+002°)
1.23594743344450e+002	(7.58476728934421e+000dB,-1.42308268813189e+002°)
1.23879658653036e+002	(7.59228719913806e+000dB,-1.42280139645175e+002°)
1.24165230759240e+002	(7.59982535715489e+000dB,-1.42251975133254e+002°)
1.24451461177138e+002	(7.60738178741734e+000dB,-1.42223775737909e+002°)
1.24738351424294e+002	(7.61495651369524e+000dB,-1.42195541920503e+002°)
1.25025903021771e+002	(7.62254955950453e+000dB,-1.42167274143271e+002°)
1.25314117494141e+002	(7.63016094810638e+000dB,-1.42138972869319e+002°)
1.25602996369487e+002	(7.63779070250640e+000dB,-1.42110638562610e+002°)
1.25892541179416e+002	(7.64543884545347e+000dB,-1.42082271687965e+002°)
1.26182753459066e+002	(7.65310539943900e+000dB,-1.42053872711050e+002°)
1.26473634747114e+002	(7.66079038669595e+000dB,-1.42025442098373e+002°)
1.26765186585784e+002	(7.66849382919783e+000dB,-1.41996980317276e+002°)
1.27057410520853e+002	(7.67621574865802e+000dB,-1.41968487835927e+002°)
1.27350308101665e+002	(7.68395616652872e+000dB,-1.41939965123315e+002°)
1.27643880881134e+002	(7.69171510400002e+000dB,-1.41911412649241e+002°)
1.27938130415752e+002	(7.69949258199915e+000dB,-1.41882830884314e+002°)
1.28233058265601e+002	(7.70728862118936e+000dB,-1.41854220299940e+002°)
1.28528665994361e+002	(7.71510324196956e+000dB,-1.41825581368318e+002°)
1.28824955169313e+002	(7.72293646447265e+000dB,-1.41796914562430e+002°)
1.29121927361353e+002	(7.73078830856552e+000dB,-1.41768220356039e+002°)
1.29419584144998e+002	(7.73865879384750e+000dB,-1.41739499223674e+002°)
1.29717927098395e+002	(7.74654793964994e+000dB,-1.41710751640630e+002°)
1.30016957803328e+002	(7.75445576503511e+000dB,-1.41681978082956e+002°)
1.30316677845229e+002	(7.76238228879555e+000dB,-1.41653179027448e+002°)
1.30617088813183e+002	(7.77032752945309e+000dB,-1.41624354951645e+002°)
1.30918192299940e+002	(7.77829150525821e+000dB,-1.41595506333818e+002°)
1.31219989901920e+002	(7.78627423418887e+000dB,-1.41566633652962e+002°)
1.31522483219223e+002	(7.79427573395020e+000dB,-1.41537737388793e+002°)
1.31825673855640e+002	(7.80229602197310e+000dB,-1.41508818021735e+002°)
1.32129563418657e+002	(7.81033511541408e+000dB,-1.41479876032914e+002°)
1.32434153519466e+002	(7.81839303115396e+000dB,-1.41450911904154e+002°)
1.32739445772973e+002	(7.82646978579737e+000dB,-1.41421926117962e+002°)
1.33045441797808e+002	(7.83456539567165e+000dB,-1.41392919157528e+002°)
1.33352143216332e+002	(7.84267987682663e+000dB,-1.41363891506711e+002°)
1.33659551654643e+002	(7.85081324503320e+000dB,-1.41334843650033e+002°)
1.33967668742593e+002	(7.85896551578310e+000dB,-1.41305776072674e+002°)
1.34276496113786e+002	(7.86713670428777e+000dB,-1.41276689260460e+002°)
1.34586035405594e+002	(7.87532682547809e+000dB,-1.41247583699855e+002°)
1.34896288259165e+002	(7.88353589400302e+000dB,-1.41218459877958e+002°)
1.35207256319427e+002	(7.89176392422929e+000dB,-1.41189318282487e+002°)
1.35518941235103e+002	(7.90001093024063e+000dB,-1.41160159401779e+002°)
1.35831344658715e+002	(7.90827692583689e+000dB,-1.41130983724775e+002°)
1.36144468246594e+002	(7.91656192453355e+000dB,-1.41101791741016e+002°)
1.36458313658892e+002	(7.92486593956088e+000dB,-1.41072583940633e+002°)
1.36772882559584e+002	(7.93318898386321e+000dB,-1.41043360814340e+002°)
1.37088176616484e+002	(7.94153107009842e+000dB,-1.41014122853422e+002°)
1.37404197501251e+002	(7.94989221063701e+000dB,-1.40984870549733e+002°)
1.37720946889394e+002	(7.95827241756173e+000dB,-1.40955604395681e+002°)
1.38038426460288e+002	(7.96667170266662e+000dB,-1.40926324884223e+002°)
1.38356637897177e+002	(7.97509007745655e+000dB,-1.40897032508857e+002°)
1.38675582887188e+002	(7.98352755314660e+000dB,-1.40867727763610e+002°)
1.38995263121334e+002	(7.99198414066117e+000dB,-1.40838411143033e+002°)
1.39315680294529e+002	(8.00045985063380e+000dB,-1.40809083142193e+002°)
1.39636836105593e+002	(8.00895469340587e+000dB,-1.40779744256659e+002°)
1.39958732257261e+002	(8.01746867902670e+000dB,-1.40750394982499e+002°)
1.40281370456195e+002	(8.02600181725252e+000dB,-1.40721035816267e+002°)
1.40604752412990e+002	(8.03455411754599e+000dB,-1.40691667254998e+002°)
1.40928879842186e+002	(8.04312558907572e+000dB,-1.40662289796198e+002°)
1.41253754462274e+002	(8.05171624071517e+000dB,-1.40632903937832e+002°)
1.41579377995707e+002	(8.06032608104291e+000dB,-1.40603510178319e+002°)
1.41905752168908e+002	(8.06895511834147e+000dB,-1.40574109016523e+002°)
1.42232878712281e+002	(8.07760336059691e+000dB,-1.40544700951741e+002°)
1.42560759360218e+002	(8.08627081549825e+000dB,-1.40515286483697e+002°)
1.42889395851109e+002	(8.09495749043705e+000dB,-1.40485866112532e+002°)
1.43218789927353e+002	(8.10366339250687e+000dB,-1.40456440338795e+002°)
1.43548943335365e+002	(8.11238852850255e+000dB,-1.40427009663432e+002°)
1.43879857825583e+002	(8.12113290491982e+000dB,-1.40397574587781e+002°)
1.44211535152486e+002	(8.12989652795502e+000dB,-1.40368135613559e+002°)
1.44543977074592e+002	(8.13867940350411e+000dB,-1.40338693242857e+002°)
1.44877185354475e+002	(8.14748153716258e+000dB,-1.40309247978126e+002°)
1.45211161758773e+002	(8.15630293422501e+000dB,-1.40279800322171e+002°)
1.45545908058195e+002	(8.16514359968417e+000dB,-1.40250350778140e+002°)
1.45881426027534e+002	(8.17400353823105e+000dB,-1.40220899849517e+002°)
1.46217717445671e+002	(8.18288275425407e+000dB,-1.40191448040111e+002°)
1.46554784095590e+002	(8.19178125183882e+000dB,-1.40161995854047e+002°)
1.46892627764385e+002	(8.20069903476758e+000dB,-1.40132543795755e+002°)
1.47231250243271e+002	(8.20963610651875e+000dB,-1.40103092369967e+002°)
1.47570653327588e+002	(8.21859247026676e+000dB,-1.40073642081697e+002°)
1.47910838816819e+002	(8.22756812888144e+000dB,-1.40044193436243e+002°)
1.48251808514594e+002	(8.23656308492745e+000dB,-1.40014746939169e+002°)
1.48593564228699e+002	(8.24557734066436e+000dB,-1.39985303096299e+002°)
1.48936107771090e+002	(8.25461089804589e+000dB,-1.39955862413709e+002°)
1.49279440957898e+002	(8.26366375871958e+000dB,-1.39926425397713e+002°)
1.49623565609442e+002	(8.27273592402673e+000dB,-1.39896992554860e+002°)
1.49968483550236e+002	(8.28182739500156e+000dB,-1.39867564391916e+002°)
1.50314196609001e+002	(8.29093817237136e+000dB,-1.39838141415864e+002°)
1.50660706618673e+002	(8.30006825655583e+000dB,-1.39808724133887e+002°)
1.51008015416413e+002	(8.30921764766683e+000dB,-1.39779313053360e+002°)
1.51356124843619e+002	(8.31838634550822e+000dB,-1.39749908681843e+002°)
1.51705036745932e+002	(8.32757434957533e+000dB,-1.39720511527071e+002°)
1.52054752973248e+002	(8.33678165905479e+000dB,-1.39691122096940e+002°)
1.52405275379728e+002	(8.34600827282432e+000dB,-1.39661740899502e+002°)
1.52756605823806e+002	(8.35525418945222e+000dB,-1.39632368442955e+002°)
1.53108746168202e+002	(8.36451940719732e+000dB,-1.39603005235629e+002°)
1.53461698279928e+002	(8.37380392400870e+000dB,-1.39573651785983e+002°)
1.53815464030302e+002	(8.38310773752529e+000dB,-1.39544308602588e+002°)
1.54170045294954e+002	(8.39243084507580e+000dB,-1.39514976194123e+002°)
1.54525443953840e+002	(8.40177324367847e+000dB,-1.39485655069364e+002°)
1.54881661891247e+002	(8.41113493004072e+000dB,-1.39456345737171e+002°)
1.55238700995807e+002	(8.42051590055904e+000dB,-1.39427048706481e+002°)
1.55596563160506e+002	(8.42991615131890e+000dB,-1.39397764486300e+002°)
1.55955250282694e+002	(8.43933567809433e+000dB,-1.39368493585687e+002°)
1.56314764264094e+002	(8.44877447634789e+000dB,-1.39339236513753e+002°)
1.56675107010813e+002	(8.45823254123057e+000dB,-1.39309993779642e+002°)
1.57036280433354e+002	(8.46770986758136e+000dB,-1.39280765892528e+002°)
1.57398286446620e+002	(8.47720644992732e+000dB,-1.39251553361601e+002°)
1.57761126969933e+002	(8.48672228248356e+000dB,-1.39222356696061e+002°)
1.58124803927037e+002	(8.49625735915274e+000dB,-1.39193176405104e+002°)
1.58489319246110e+002	(8.50581167352516e+000dB,-1.39164012997915e+002°)
1.58854674859776e+002	(8.51538521887885e+000dB,-1.39134866983655e+002°)
1.59220872705115e+002	(8.52497798817896e+000dB,-1.39105738871457e+002°)
1.59587914723672e+002	(8.53458997407821e+000dB,-1.39076629170410e+002°)
1.59955802861465e+002	(8.54422116891647e+000dB,-1.39047538389551e+002°)
1.60324539069002e+002	(8.55387156472071e+000dB,-1.39018467037857e+002°)
1.60694125301286e+002	(8.56354115320528e+000dB,-1.38989415624234e+002°)
1.61064563517825e+002	(8.57322992577123e+000dB,-1.38960384657505e+002°)
1.61435855682647e+002	(8.58293787350682e+000dB,-1.38931374646402e+002°)
1.61808003764305e+002	(8.59266498718737e+000dB,-1.38902386099559e+002°)
1.62181009735891e+002	(8.60241125727510e+000dB,-1.38873419525494e+002°)
1.62554875575047e+002	(8.61217667391903e+000dB,-1.38844475432609e+002°)
1.62929603263970e+002	(8.62196122695539e+000dB,-1.38815554329173e+002°)
1.63305194789432e+002	(8.63176490590724e+000dB,-1.38786656723313e+002°)
1.63681652142779e+002	(8.64158769998464e+000dB,-1.38757783123007e+002°)
1.64058977319952e+002	(8.65142959808448e+000dB,-1.38728934036072e+002°)
1.64437172321491e+002	(8.66129058879087e+000dB,-1.38700109970156e+002°)
1.64816239152549e+002	(8.67117066037508e+000dB,-1.38671311432723e+002°)
1.65196179822900e+002	(8.68106980079533e+000dB,-1.38642538931050e+002°)
1.65576996346951e+002	(8.69098799769709e+000dB,-1.38613792972212e+002°)
1.65958690743754e+002	(8.70092523841316e+000dB,-1.38585074063075e+002°)
1.66341265037015e+002	(8.71088150996370e+000dB,-1.38556382710284e+002°)
1.66724721255104e+002	(8.72085679905623e+000dB,-1.38527719420254e+002°)
1.67109061431069e+002	(8.73085109208598e+000dB,-1.38499084699161e+002°)
1.67494287602642e+002	(8.74086437513579e+000dB,-1.38470479052931e+002°)
1.67880401812254e+002	(8.75089663397614e+000dB,-1.38441902987229e+002°)
1.68267406107045e+002	(8.76094785406579e+000dB,-1.38413357007453e+002°)
1.68655302538872e+002	(8.77101802055127e+000dB,-1.38384841618719e+002°)
1.69044093164324e+002	(8.78110711826751e+000dB,-1.38356357325856e+002°)
1.69433780044731e+002	(8.79121513173773e+000dB,-1.38327904633393e+002°)
1.69824365246172e+002	(8.80134204517378e+000dB,-1.38299484045548e+002°)
1.70215850839493e+002	(8.81148784247621e+000dB,-1.38271096066225e+002°)
1.70608238900310e+002	(8.82165250723454e+000dB,-1.38242741198994e+002°)
1.71001531509027e+002	(8.83183602272748e+000dB,-1.38214419947091e+002°)
1.71395730750840e+002	(8.84203837192294e+000dB,-1.38186132813401e+002°)
1.71790838715757e+002	(8.85225953747845e+000dB,-1.38157880300452e+002°)
1.72186857498599e+002	(8.86249950174140e+000dB,-1.38129662910404e+002°)
1.72583789199018e+002	(8.87275824674917e+000dB,-1.38101481145039e+002°)
1.72981635921508e+002	(8.88303575422950e+000dB,-1.38073335505753e+002°)
1.73380399775412e+002	(8.89333200560053e+000dB,-1.38045226493544e+002°)
1.73780082874935e+002	(8.90364698197124e+000dB,-1.38017154609002e+002°)
1.74180687339159e+002	(8.91398066414176e+000dB,-1.37989120352304e+002°)
1.74582215292048e+002	(8.92433303260359e+000dB,-1.37961124223196e+002°)
1.74984668862463e+002	(8.93470406753975e+000dB,-1.37933166720992e+002°)
1.75388050184174e+002	(8.94509374882544e+000dB,-1.37905248344559e+002°)
1.75792361395867e+002	(8.95550205602797e+000dB,-1.37877369592308e+002°)
1.76197604641161e+002	(8.96592896840725e+000dB,-1.37849530962186e+002°)
1.76603782068614e+002	(8.97637446491627e+000dB,-1.37821732951666e+002°)
1.77010895831740e+002	(8.98683852420118e+000dB,-1.37793976057737e+002°)
1.77418948089014e+002	(8.99732112460177e+000dB,-1.37766260776892e+002°)
1.77827941003890e+002	(9.00782224415180e+000dB,-1.37738587605122e+002°)
1.78237876744807e+002	(9.01834186057941e+000dB,-1.37710957037908e+002°)
1.78648757485203e+002	(9.02887995130742e+000dB,-1.37683369570205e+002°)
1.79060585403527e+002	(9.03943649345380e+000dB,-1.37655825696437e+002°)
1.79473362683250e+002	(9.05001146383206e+000dB,-1.37628325910488e+002°)
1.79887091512876e+002	(9.06060483895150e+000dB,-1.37600870705690e+002°)
1.80301774085954e+002	(9.07121659501784e+000dB,-1.37573460574816e+002°)
1.80717412601090e+002	(9.08184670793353e+000dB,-1.37546096010068e+002°)
1.81134009261958e+002	(9.09249515329826e+000dB,-1.37518777503069e+002°)
1.81551566277311e+002	(9.10316190640911e+000dB,-1.37491505544857e+002°)
1.81970085860996e+002	(9.11384694226145e+000dB,-1.37464280625867e+002°)
1.82389570231961e+002	(9.12455023554906e+000dB,-1.37437103235930e+002°)
1.82810021614272e+002	(9.13527176066472e+000dB,-1.37409973864261e+002°)
1.83231442237119e+002	(9.14601149170065e+000dB,-1.37382892999448e+002°)
1.83653834334832e+002	(9.15676940244893e+000dB,-1.37355861129445e+002°)
1.84077200146893e+002	(9.16754546640231e+000dB,-1.37328878741561e+002°)
1.84501541917945e+002	(9.17833965675424e+000dB,-1.37301946322454e+002°)
1.84926861897805e+002	(9.18915194639956e+000dB,-1.37275064358116e+002°)
1.85353162341478e+002	(9.19998230793527e+000dB,-1.37248233333870e+002°)
1.85780445509167e+002	(9.21083071366059e+000dB,-1.37221453734358e+002°)
1.86208713666284e+002	(9.22169713557800e+000dB,-1.37194726043531e+002°)
1.86637969083464e+002	(9.23258154539332e+000dB,-1.37168050744643e+002°)
1.87068214036577e+002	(9.24348391451652e+000dB,-1.37141428320238e+002°)
1.87499450806739e+002	(9.25440421406216e+000dB,-1.37114859252144e+002°)
1.87931681680324e+002	(9.26534241485020e+000dB,-1.37088344021464e+002°)
1.88364908948977e+002	(9.27629848740619e+000dB,-1.37061883108565e+002°)
1.88799134909627e+002	(9.28727240196205e+000dB,-1.37035476993071e+002°)
