Freq.	V(n005)
1.00000000000000e+002	(6.96917769914911e+000dB,-1.44686853650730e+002°)
1.00230523807790e+002	(6.97515196710001e+000dB,-1.44663801866951e+002°)
1.00461579027840e+002	(6.98114132970869e+000dB,-1.44640676847555e+002°)
1.00693166885180e+002	(6.98714582980901e+000dB,-1.44617478951240e+002°)
1.00925288607668e+002	(6.99316551007965e+000dB,-1.44594208537957e+002°)
1.01157945425990e+002	(6.99920041304300e+000dB,-1.44570865968903e+002°)
1.01391138573668e+002	(7.00525058106433e+000dB,-1.44547451606526e+002°)
1.01624869287070e+002	(7.01131605635021e+000dB,-1.44523965814517e+002°)
1.01859138805412e+002	(7.01739688094786e+000dB,-1.44500408957811e+002°)
1.02093948370768e+002	(7.02349309674405e+000dB,-1.44476781402588e+002°)
1.02329299228075e+002	(7.02960474546379e+000dB,-1.44453083516264e+002°)
1.02565192625141e+002	(7.03573186866927e+000dB,-1.44429315667497e+002°)
1.02801629812647e+002	(7.04187450775901e+000dB,-1.44405478226180e+002°)
1.03038612044162e+002	(7.04803270396656e+000dB,-1.44381571563440e+002°)
1.03276140576140e+002	(7.05420649835937e+000dB,-1.44357596051637e+002°)
1.03514216667934e+002	(7.06039593183786e+000dB,-1.44333552064361e+002°)
1.03752841581801e+002	(7.06660104513425e+000dB,-1.44309439976430e+002°)
1.03992016582906e+002	(7.07282187881145e+000dB,-1.44285260163889e+002°)
1.04231742939330e+002	(7.07905847326198e+000dB,-1.44261013004005e+002°)
1.04472021922080e+002	(7.08531086870681e+000dB,-1.44236698875268e+002°)
1.04712854805090e+002	(7.09157910519448e+000dB,-1.44212318157385e+002°)
1.04954242865232e+002	(7.09786322259974e+000dB,-1.44187871231282e+002°)
1.05196187382322e+002	(7.10416326062251e+000dB,-1.44163358479097e+002°)
1.05438689639126e+002	(7.11047925878707e+000dB,-1.44138780284181e+002°)
1.05681750921366e+002	(7.11681125644034e+000dB,-1.44114137031092e+002°)
1.05925372517729e+002	(7.12315929275142e+000dB,-1.44089429105597e+002°)
1.06169555719872e+002	(7.12952340671033e+000dB,-1.44064656894666e+002°)
1.06414301822431e+002	(7.13590363712647e+000dB,-1.44039820786468e+002°)
1.06659612123026e+002	(7.14230002262807e+000dB,-1.44014921170372e+002°)
1.06905487922266e+002	(7.14871260166090e+000dB,-1.43989958436943e+002°)
1.07151930523760e+002	(7.15514141248708e+000dB,-1.43964932977937e+002°)
1.07398941234124e+002	(7.16158649318396e+000dB,-1.43939845186300e+002°)
1.07646521362983e+002	(7.16804788164334e+000dB,-1.43914695456164e+002°)
1.07894672222983e+002	(7.17452561556983e+000dB,-1.43889484182846e+002°)
1.08143395129794e+002	(7.18101973248032e+000dB,-1.43864211762842e+002°)
1.08392691402120e+002	(7.18753026970225e+000dB,-1.43838878593825e+002°)
1.08642562361706e+002	(7.19405726437335e+000dB,-1.43813485074644e+002°)
1.08893009333343e+002	(7.20060075343964e+000dB,-1.43788031605316e+002°)
1.09144033644875e+002	(7.20716077365484e+000dB,-1.43762518587026e+002°)
1.09395636627209e+002	(7.21373736157943e+000dB,-1.43736946422126e+002°)
1.09647819614318e+002	(7.22033055357890e+000dB,-1.43711315514125e+002°)
1.09900583943252e+002	(7.22694038582334e+000dB,-1.43685626267690e+002°)
1.10153930954141e+002	(7.23356689428588e+000dB,-1.43659879088643e+002°)
1.10407861990207e+002	(7.24021011474187e+000dB,-1.43634074383954e+002°)
1.10662378397766e+002	(7.24687008276757e+000dB,-1.43608212561741e+002°)
1.10917481526240e+002	(7.25354683373929e+000dB,-1.43582294031264e+002°)
1.11173172728159e+002	(7.26024040283197e+000dB,-1.43556319202921e+002°)
1.11429453359173e+002	(7.26695082501860e+000dB,-1.43530288488245e+002°)
1.11686324778056e+002	(7.27367813506856e+000dB,-1.43504202299903e+002°)
1.11943788346715e+002	(7.28042236754672e+000dB,-1.43478061051686e+002°)
1.12201845430196e+002	(7.28718355681262e+000dB,-1.43451865158508e+002°)
1.12460497396692e+002	(7.29396173701914e+000dB,-1.43425615036406e+002°)
1.12719745617551e+002	(7.30075694211130e+000dB,-1.43399311102528e+002°)
1.12979591467279e+002	(7.30756920582559e+000dB,-1.43372953775136e+002°)
1.13240036323555e+002	(7.31439856168820e+000dB,-1.43346543473595e+002°)
1.13501081567231e+002	(7.32124504301476e+000dB,-1.43320080618378e+002°)
1.13762728582343e+002	(7.32810868290875e+000dB,-1.43293565631050e+002°)
1.14024978756117e+002	(7.33498951426043e+000dB,-1.43266998934275e+002°)
1.14287833478977e+002	(7.34188756974597e+000dB,-1.43240380951804e+002°)
1.14551294144553e+002	(7.34880288182617e+000dB,-1.43213712108472e+002°)
1.14815362149688e+002	(7.35573548274562e+000dB,-1.43186992830196e+002°)
1.15080038894443e+002	(7.36268540453142e+000dB,-1.43160223543969e+002°)
1.15345325782109e+002	(7.36965267899219e+000dB,-1.43133404677854e+002°)
1.15611224219209e+002	(7.37663733771701e+000dB,-1.43106536660981e+002°)
1.15877735615512e+002	(7.38363941207448e+000dB,-1.43079619923541e+002°)
1.16144861384034e+002	(7.39065893321136e+000dB,-1.43052654896783e+002°)
1.16412602941049e+002	(7.39769593205181e+000dB,-1.43025642013007e+002°)
1.16680961706096e+002	(7.40475043929609e+000dB,-1.42998581705560e+002°)
1.16949939101987e+002	(7.41182248541984e+000dB,-1.42971474408833e+002°)
1.17219536554813e+002	(7.41891210067259e+000dB,-1.42944320558251e+002°)
1.17489755493952e+002	(7.42601931507719e+000dB,-1.42917120590274e+002°)
1.17760597352080e+002	(7.43314415842829e+000dB,-1.42889874942385e+002°)
1.18032063565172e+002	(7.44028666029160e+000dB,-1.42862584053094e+002°)
1.18304155572516e+002	(7.44744685000296e+000dB,-1.42835248361922e+002°)
1.18576874816716e+002	(7.45462475666694e+000dB,-1.42807868309404e+002°)
1.18850222743701e+002	(7.46182040915606e+000dB,-1.42780444337080e+002°)
1.19124200802737e+002	(7.46903383610969e+000dB,-1.42752976887491e+002°)
1.19398810446427e+002	(7.47626506593303e+000dB,-1.42725466404171e+002°)
1.19674053130724e+002	(7.48351412679619e+000dB,-1.42697913331645e+002°)
1.19949930314937e+002	(7.49078104663290e+000dB,-1.42670318115421e+002°)
1.20226443461741e+002	(7.49806585313998e+000dB,-1.42642681201986e+002°)
1.20503594037179e+002	(7.50536857377564e+000dB,-1.42615003038797e+002°)
1.20781383510677e+002	(7.51268923575924e+000dB,-1.42587284074279e+002°)
1.21059813355048e+002	(7.52002786606958e+000dB,-1.42559524757820e+002°)
1.21338885046497e+002	(7.52738449144449e+000dB,-1.42531725539759e+002°)
1.21618600064636e+002	(7.53475913837952e+000dB,-1.42503886871386e+002°)
1.21898959892486e+002	(7.54215183312677e+000dB,-1.42476009204935e+002°)
1.22179966016487e+002	(7.54956260169458e+000dB,-1.42448092993576e+002°)
1.22461619926504e+002	(7.55699146984569e+000dB,-1.42420138691410e+002°)
1.22743923115840e+002	(7.56443846309689e+000dB,-1.42392146753463e+002°)
1.23026877081238e+002	(7.57190360671791e+000dB,-1.42364117635680e+002°)
1.23310483322890e+002	(7.57938692573019e+000dB,-1.42336051794919e+002°)
1.23594743344450e+002	(7.58688844490625e+000dB,-1.42307949688943e+002°)
1.23879658653036e+002	(7.59440818876847e+000dB,-1.42279811776415e+002°)
1.24165230759240e+002	(7.60194618158841e+000dB,-1.42251638516893e+002°)
1.24451461177138e+002	(7.60950244738557e+000dB,-1.42223430370822e+002°)
1.24738351424294e+002	(7.61707700992670e+000dB,-1.42195187799525e+002°)
1.25025903021771e+002	(7.62466989272465e+000dB,-1.42166911265203e+002°)
1.25314117494141e+002	(7.63228111903747e+000dB,-1.42138601230921e+002°)
1.25602996369487e+002	(7.63991071186767e+000dB,-1.42110258160606e+002°)
1.25892541179416e+002	(7.64755869396113e+000dB,-1.42081882519042e+002°)
1.26182753459066e+002	(7.65522508780611e+000dB,-1.42053474771855e+002°)
1.26473634747114e+002	(7.66290991563257e+000dB,-1.42025035385517e+002°)
1.26765186585784e+002	(7.67061319941105e+000dB,-1.41996564827331e+002°)
1.27057410520853e+002	(7.67833496085183e+000dB,-1.41968063565427e+002°)
1.27350308101665e+002	(7.68607522140416e+000dB,-1.41939532068756e+002°)
1.27643880881134e+002	(7.69383400225508e+000dB,-1.41910970807081e+002°)
1.27938130415752e+002	(7.70161132432892e+000dB,-1.41882380250972e+002°)
1.28233058265601e+002	(7.70940720828599e+000dB,-1.41853760871797e+002°)
1.28528665994361e+002	(7.71722167452196e+000dB,-1.41825113141716e+002°)
1.28824955169313e+002	(7.72505474316720e+000dB,-1.41796437533675e+002°)
1.29121927361353e+002	(7.73290643408537e+000dB,-1.41767734521395e+002°)
1.29419584144998e+002	(7.74077676687298e+000dB,-1.41739004579368e+002°)
1.29717927098395e+002	(7.74866576085837e+000dB,-1.41710248182850e+002°)
1.30016957803328e+002	(7.75657343510108e+000dB,-1.41681465807851e+002°)
1.30316677845229e+002	(7.76449980839064e+000dB,-1.41652657931129e+002°)
1.30617088813183e+002	(7.77244489924602e+000dB,-1.41623825030183e+002°)
1.30918192299940e+002	(7.78040872591481e+000dB,-1.41594967583244e+002°)
1.31219989901920e+002	(7.78839130637226e+000dB,-1.41566086069272e+002°)
1.31522483219223e+002	(7.79639265832041e+000dB,-1.41537180967939e+002°)
1.31825673855640e+002	(7.80441279918758e+000dB,-1.41508252759632e+002°)
1.32129563418657e+002	(7.81245174612731e+000dB,-1.41479301925439e+002°)
1.32434153519466e+002	(7.82050951601768e+000dB,-1.41450328947141e+002°)
1.32739445772973e+002	(7.82858612546039e+000dB,-1.41421334307210e+002°)
1.33045441797808e+002	(7.83668159078020e+000dB,-1.41392318488792e+002°)
1.33352143216332e+002	(7.84479592802391e+000dB,-1.41363281975709e+002°)
1.33659551654643e+002	(7.85292915295984e+000dB,-1.41334225252444e+002°)
1.33967668742593e+002	(7.86108128107694e+000dB,-1.41305148804135e+002°)
1.34276496113786e+002	(7.86925232758398e+000dB,-1.41276053116570e+002°)
1.34586035405594e+002	(7.87744230740888e+000dB,-1.41246938676172e+002°)
1.34896288259165e+002	(7.88565123519803e+000dB,-1.41217805970000e+002°)
1.35207256319427e+002	(7.89387912531554e+000dB,-1.41188655485734e+002°)
1.35518941235103e+002	(7.90212599184221e+000dB,-1.41159487711668e+002°)
1.35831344658715e+002	(7.91039184857536e+000dB,-1.41130303136705e+002°)
1.36144468246594e+002	(7.91867670902780e+000dB,-1.41101102250345e+002°)
1.36458313658892e+002	(7.92698058642702e+000dB,-1.41071885542678e+002°)
1.36772882559584e+002	(7.93530349371484e+000dB,-1.41042653504378e+002°)
1.37088176616484e+002	(7.94364544354635e+000dB,-1.41013406626692e+002°)
1.37404197501251e+002	(7.95200644828954e+000dB,-1.40984145401429e+002°)
1.37720946889394e+002	(7.96038652002440e+000dB,-1.40954870320960e+002°)
1.38038426460288e+002	(7.96878567054249e+000dB,-1.40925581878200e+002°)
1.38356637897177e+002	(7.97720391134603e+000dB,-1.40896280566605e+002°)
1.38675582887188e+002	(7.98564125364742e+000dB,-1.40866966880164e+002°)
1.38995263121334e+002	(7.99409770836875e+000dB,-1.40837641313387e+002°)
1.39315680294529e+002	(8.00257328614056e+000dB,-1.40808304361297e+002°)
1.39636836105593e+002	(8.01106799730204e+000dB,-1.40778956519424e+002°)
1.39958732257261e+002	(8.01958185189976e+000dB,-1.40749598283794e+002°)
1.40281370456195e+002	(8.02811485968750e+000dB,-1.40720230150922e+002°)
1.40604752412990e+002	(8.03666703012538e+000dB,-1.40690852617801e+002°)
1.40928879842186e+002	(8.04523837237929e+000dB,-1.40661466181893e+002°)
1.41253754462274e+002	(8.05382889532055e+000dB,-1.40632071341125e+002°)
1.41579377995707e+002	(8.06243860752499e+000dB,-1.40602668593874e+002°)
1.41905752168908e+002	(8.07106751727266e+000dB,-1.40573258438961e+002°)
1.42232878712281e+002	(8.07971563254718e+000dB,-1.40543841375643e+002°)
1.42560759360218e+002	(8.08838296103516e+000dB,-1.40514417903601e+002°)
1.42889395851109e+002	(8.09706951012559e+000dB,-1.40484988522935e+002°)
1.43218789927353e+002	(8.10577528690965e+000dB,-1.40455553734152e+002°)
1.43548943335365e+002	(8.11450029817970e+000dB,-1.40426114038157e+002°)
1.43879857825583e+002	(8.12324455042908e+000dB,-1.40396669936246e+002°)
1.44211535152486e+002	(8.13200804985162e+000dB,-1.40367221930094e+002°)
1.44543977074592e+002	(8.14079080234098e+000dB,-1.40337770521749e+002°)
1.44877185354475e+002	(8.14959281349029e+000dB,-1.40308316213620e+002°)
1.45211161758773e+002	(8.15841408859153e+000dB,-1.40278859508470e+002°)
1.45545908058195e+002	(8.16725463263528e+000dB,-1.40249400909406e+002°)
1.45881426027534e+002	(8.17611445031009e+000dB,-1.40219940919868e+002°)
1.46217717445671e+002	(8.18499354600206e+000dB,-1.40190480043624e+002°)
1.46554784095590e+002	(8.19389192379434e+000dB,-1.40161018784755e+002°)
1.46892627764385e+002	(8.20280958746693e+000dB,-1.40131557647651e+002°)
1.47231250243271e+002	(8.21174654049591e+000dB,-1.40102097136998e+002°)
1.47570653327588e+002	(8.22070278605336e+000dB,-1.40072637757771e+002°)
1.47910838816819e+002	(8.22967832700673e+000dB,-1.40043180015222e+002°)
1.48251808514594e+002	(8.23867316591855e+000dB,-1.40013724414874e+002°)
1.48593564228699e+002	(8.24768730504599e+000dB,-1.39984271462508e+002°)
1.48936107771090e+002	(8.25672074634044e+000dB,-1.39954821664157e+002°)
1.49279440957898e+002	(8.26577349144728e+000dB,-1.39925375526092e+002°)
1.49623565609442e+002	(8.27484554170542e+000dB,-1.39895933554818e+002°)
1.49968483550236e+002	(8.28393689814694e+000dB,-1.39866496257060e+002°)
1.50314196609001e+002	(8.29304756149680e+000dB,-1.39837064139756e+002°)
1.50660706618673e+002	(8.30217753217249e+000dB,-1.39807637710045e+002°)
1.51008015416413e+002	(8.31132681028367e+000dB,-1.39778217475261e+002°)
1.51356124843619e+002	(8.32049539563187e+000dB,-1.39748803942920e+002°)
1.51705036745932e+002	(8.32968328771028e+000dB,-1.39719397620712e+002°)
1.52054752973248e+002	(8.33889048570346e+000dB,-1.39689999016491e+002°)
1.52405275379728e+002	(8.34811698848674e+000dB,-1.39660608638265e+002°)
1.52756605823806e+002	(8.35736279462628e+000dB,-1.39631226994187e+002°)
1.53108746168202e+002	(8.36662790237881e+000dB,-1.39601854592546e+002°)
1.53461698279928e+002	(8.37591230969119e+000dB,-1.39572491941754e+002°)
1.53815464030302e+002	(8.38521601420026e+000dB,-1.39543139550341e+002°)
1.54170045294954e+002	(8.39453901323245e+000dB,-1.39513797926941e+002°)
1.54525443953840e+002	(8.40388130380395e+000dB,-1.39484467580285e+002°)
1.54881661891247e+002	(8.41324288262006e+000dB,-1.39455149019189e+002°)
1.55238700995807e+002	(8.42262374607518e+000dB,-1.39425842752548e+002°)
1.55596563160506e+002	(8.43202389025260e+000dB,-1.39396549289320e+002°)
1.55955250282694e+002	(8.44144331092424e+000dB,-1.39367269138525e+002°)
1.56314764264094e+002	(8.45088200355059e+000dB,-1.39338002809224e+002°)
1.56675107010813e+002	(8.46033996328054e+000dB,-1.39308750810520e+002°)
1.57036280433354e+002	(8.46981718495101e+000dB,-1.39279513651542e+002°)
1.57398286446620e+002	(8.47931366308706e+000dB,-1.39250291841435e+002°)
1.57761126969933e+002	(8.48882939190170e+000dB,-1.39221085889355e+002°)
1.58124803927037e+002	(8.49836436529544e+000dB,-1.39191896304451e+002°)
1.58489319246110e+002	(8.50791857685667e+000dB,-1.39162723595865e+002°)
1.58854674859776e+002	(8.51749201986129e+000dB,-1.39133568272715e+002°)
1.59220872705115e+002	(8.52708468727252e+000dB,-1.39104430844086e+002°)
1.59587914723672e+002	(8.53669657174097e+000dB,-1.39075311819023e+002°)
1.59955802861465e+002	(8.54632766560454e+000dB,-1.39046211706518e+002°)
1.60324539069002e+002	(8.55597796088826e+000dB,-1.39017131015504e+002°)
1.60694125301286e+002	(8.56564744930429e+000dB,-1.38988070254839e+002°)
1.61064563517825e+002	(8.57533612225198e+000dB,-1.38959029933303e+002°)
1.61435855682647e+002	(8.58504397081746e+000dB,-1.38930010559583e+002°)
1.61808003764305e+002	(8.59477098577412e+000dB,-1.38901012642266e+002°)
1.62181009735891e+002	(8.60451715758209e+000dB,-1.38872036689826e+002°)
1.62554875575047e+002	(8.61428247638864e+000dB,-1.38843083210619e+002°)
1.62929603263970e+002	(8.62406693202795e+000dB,-1.38814152712866e+002°)
1.63305194789432e+002	(8.63387051402113e+000dB,-1.38785245704652e+002°)
1.63681652142779e+002	(8.64369321157628e+000dB,-1.38756362693908e+002°)
1.64058977319952e+002	(8.65353501358850e+000dB,-1.38727504188404e+002°)
1.64437172321491e+002	(8.66339590863997e+000dB,-1.38698670695742e+002°)
1.64816239152549e+002	(8.67327588499994e+000dB,-1.38669862723343e+002°)
1.65196179822900e+002	(8.68317493062483e+000dB,-1.38641080778435e+002°)
1.65576996346951e+002	(8.69309303315826e+000dB,-1.38612325368048e+002°)
1.65958690743754e+002	(8.70303017993103e+000dB,-1.38583596999001e+002°)
1.66341265037015e+002	(8.71298635796146e+000dB,-1.38554896177894e+002°)
1.66724721255104e+002	(8.72296155395530e+000dB,-1.38526223411094e+002°)
1.67109061431069e+002	(8.73295575430592e+000dB,-1.38497579204733e+002°)
1.67494287602642e+002	(8.74296894509414e+000dB,-1.38468964064688e+002°)
1.67880401812254e+002	(8.75300111208888e+000dB,-1.38440378496580e+002°)
1.68267406107045e+002	(8.76305224074677e+000dB,-1.38411823005758e+002°)
1.68655302538872e+002	(8.77312231621273e+000dB,-1.38383298097294e+002°)
1.69044093164324e+002	(8.78321132331978e+000dB,-1.38354804275967e+002°)
1.69433780044731e+002	(8.79331924658939e+000dB,-1.38326342046261e+002°)
1.69824365246172e+002	(8.80344607023154e+000dB,-1.38297911912348e+002°)
1.70215850839493e+002	(8.81359177814506e+000dB,-1.38269514378082e+002°)
1.70608238900310e+002	(8.82375635391760e+000dB,-1.38241149946990e+002°)
1.71001531509027e+002	(8.83393978082614e+000dB,-1.38212819122258e+002°)
1.71395730750840e+002	(8.84414204183676e+000dB,-1.38184522406724e+002°)
1.71790838715757e+002	(8.85436311960541e+000dB,-1.38156260302870e+002°)
1.72186857498599e+002	(8.86460299647761e+000dB,-1.38128033312808e+002°)
1.72583789199018e+002	(8.87486165448896e+000dB,-1.38099841938273e+002°)
1.72981635921508e+002	(8.88513907536546e+000dB,-1.38071686680614e+002°)
1.73380399775412e+002	(8.89543524052349e+000dB,-1.38043568040779e+002°)
1.73780082874935e+002	(8.90575013107044e+000dB,-1.38015486519314e+002°)
1.74180687339159e+002	(8.91608372780464e+000dB,-1.37987442616345e+002°)
1.74582215292048e+002	(8.92643601121582e+000dB,-1.37959436831572e+002°)
1.74984668862463e+002	(8.93680696148544e+000dB,-1.37931469664261e+002°)
1.75388050184174e+002	(8.94719655848684e+000dB,-1.37903541613231e+002°)
1.75792361395867e+002	(8.95760478178573e+000dB,-1.37875653176845e+002°)
1.76197604641161e+002	(8.96803161064035e+000dB,-1.37847804853003e+002°)
1.76603782068614e+002	(8.97847702400201e+000dB,-1.37819997139128e+002°)
1.77010895831740e+002	(8.98894100051517e+000dB,-1.37792230532161e+002°)
1.77418948089014e+002	(8.99942351851790e+000dB,-1.37764505528547e+002°)
1.77827941003890e+002	(9.00992455604247e+000dB,-1.37736822624232e+002°)
1.78237876744807e+002	(9.02044409081520e+000dB,-1.37709182314643e+002°)
1.78648757485203e+002	(9.03098210025736e+000dB,-1.37681585094690e+002°)
1.79060585403527e+002	(9.04153856148529e+000dB,-1.37654031458747e+002°)
1.79473362683250e+002	(9.05211345131083e+000dB,-1.37626521900651e+002°)
1.79887091512876e+002	(9.06270674624168e+000dB,-1.37599056913684e+002°)
1.80301774085954e+002	(9.07331842248206e+000dB,-1.37571636990571e+002°)
1.80717412601090e+002	(9.08394845593270e+000dB,-1.37544262623464e+002°)
1.81134009261958e+002	(9.09459682219157e+000dB,-1.37516934303939e+002°)
1.81551566277311e+002	(9.10526349655435e+000dB,-1.37489652522982e+002°)
1.81970085860996e+002	(9.11594845401488e+000dB,-1.37462417770981e+002°)
1.82389570231961e+002	(9.12665166926515e+000dB,-1.37435230537719e+002°)
1.82810021614272e+002	(9.13737311669648e+000dB,-1.37408091312359e+002°)
1.83231442237119e+002	(9.14811277039951e+000dB,-1.37381000583442e+002°)
1.83653834334832e+002	(9.15887060416494e+000dB,-1.37353958838871e+002°)
1.84077200146893e+002	(9.16964659148361e+000dB,-1.37326966565907e+002°)
1.84501541917945e+002	(9.18044070554762e+000dB,-1.37300024251157e+002°)
1.84926861897805e+002	(9.19125291925033e+000dB,-1.37273132380565e+002°)
1.85353162341478e+002	(9.20208320518707e+000dB,-1.37246291439403e+002°)
1.85780445509167e+002	(9.21293153565573e+000dB,-1.37219501912263e+002°)
1.86208713666284e+002	(9.22379788265713e+000dB,-1.37192764283048e+002°)
1.86637969083464e+002	(9.23468221789560e+000dB,-1.37166079034960e+002°)
1.87068214036577e+002	(9.24558451277956e+000dB,-1.37139446650495e+002°)
1.87499450806739e+002	(9.25650473842222e+000dB,-1.37112867611429e+002°)
1.87931681680324e+002	(9.26744286564192e+000dB,-1.37086342398817e+002°)
1.88364908948977e+002	(9.27839886496268e+000dB,-1.37059871492974e+002°)
1.88799134909627e+002	(9.28937270661510e+000dB,-1.37033455373474e+002°)
