Circuit: * F:\Usuario Elias\Downloads\FIUBA\01 - En Curso\Circuitos I\Repos\TL2\TL3\simulaciones\Draft1.asc

Direct Newton iteration for .op point succeeded.
Semiconductor Device Operating Points:
                        --- Bipolar Transistors ---
Name:       q1
Model:      npn
Ib:       1.20e-05
Ic:       1.20e-03
Vbe:      7.79e-01
Vbc:     -1.44e+01
Vce:      1.52e+01
BetaDC:   1.00e+02
Gm:       4.64e-02
Rpi:      2.16e+03
Rx:       0.00e+00
Ro:       0.00e+00
Cbe:      0.00e+00
Cbc:      0.00e+00
Cjs:      0.00e+00
BetaAC:   1.00e+02
Cbx:      0.00e+00
Ft:       0.00e+00



Date: Tue Dec 10 09:33:44 2019
Total elapsed time: 0.028 seconds.

tnom = 27
temp = 27
method = trap
totiter = 7
traniter = 0
tranpoints = 0
accept = 0
rejected = 0
matrix size = 9
fillins = 0
solver = Normal
Matrix Compiler1: 394 bytes object code size
Matrix Compiler2: 667 bytes object code size
