Circuit: * C:\Users\Joel\Desktop\cosas de la facu\Circuitos 1\TL3\simulacion.asc

Direct Newton iteration for .op point succeeded.
Semiconductor Device Operating Points:
                        --- Bipolar Transistors ---
Name:       q1
Model:    2n2369
Ib:       2.18e-04
Ic:       1.49e-02
Vbe:      6.90e-01
Vbc:     -2.37e-02
Vce:      7.14e-01
BetaDC:   6.86e+01
Gm:       5.55e-01
Rpi:      1.22e+02
Rx:       1.00e+01
Ro:       6.69e+03
Cbe:      1.36e-10
Cbc:      2.82e-12
Cjs:      0.00e+00
BetaAC:   6.75e+01
Cbx:      0.00e+00
Ft:       6.34e+08

                        --- JFET Transistors ---
Name:      j1
Model:   2n4393
Id:      7.39e-04
Vgs:     4.18e-01
Vds:     2.37e-02
Gm:      4.05e-04
Gds:     3.31e-02
Cgs:     5.06e-12
Cgd:     5.61e-12



Date: Thu Nov 28 23:59:56 2019
Total elapsed time: 0.034 seconds.

tnom = 27
temp = 27
method = trap
totiter = 15
traniter = 0
tranpoints = 0
accept = 0
rejected = 0
matrix size = 12
fillins = 4
solver = Normal
Matrix Compiler1: 962 bytes object code size
Matrix Compiler2: 1.06 KB object code size
